T5144 11204:164.271   SEGGER J-Link V7.92n Log File
T5144 11204:164.308   DLL Compiled: Oct 31 2023 15:10:15
T5144 11204:164.311   Logging started @ 2023-11-09 12:36
T5144 11204:164.314   Process: D:\Keil_v5\UV4\UV4.exe
T5144 11204:164.317 - 4397.699ms
T5144 11204:164.321 JLINK_SetWarnOutHandler(...)
T5144 11204:164.324 - 0.002ms
T5144 11204:164.328 JLINK_OpenEx(...)
T5144 11204:165.989   Firmware: J-Link V9 compiled May  7 2021 16:26:12
T5144 11204:167.461   Firmware: J-Link V9 compiled May  7 2021 16:26:12
T5144 11204:167.591   Decompressing FW timestamp took 116 us
T5144 11204:175.415   Hardware: V9.70
T5144 11204:175.421   S/N: 150710770
T5144 11204:175.425   OEM: SEGGER
T5144 11204:175.428   Feature(s): GDB, RDI, FlashBP, FlashDL, JFlash
T5144 11204:176.736   Bootloader: (Could not read)
T5144 11204:178.394   TELNET listener socket opened on port 19021
T5144 11204:181.848   WEBSRV WEBSRV_Init(): Starting webserver thread(s)
T5144 11204:181.906   WEBSRV Webserver running on local port 19080
T5144 11204:181.943   Looking for J-Link GUI Server exe at: D:\Keil_v5\ARM\Segger\JLinkGUIServer.exe
T5144 11204:181.956   Looking for J-Link GUI Server exe at: D:\app\SEGGER\JLink_V792n\JLinkGUIServer.exe
T5144 11204:181.962   Forking J-Link GUI Server: D:\app\SEGGER\JLink_V792n\JLinkGUIServer.exe
T5144 11204:184.502   J-Link GUI Server info: "J-Link GUI server V7.92n "
T5144 11204:184.838 - 20.503ms returns "O.K."
T5144 11204:184.879 JLINK_GetEmuCaps()
T5144 11204:184.882 - 0.003ms returns 0xB9FF7BBF
T5144 11204:184.887 JLINK_TIF_GetAvailable(...)
T5144 11204:185.294 - 0.406ms
T5144 11204:185.316 JLINK_SetErrorOutHandler(...)
T5144 11204:185.319 - 0.002ms
T5144 11204:185.330 JLINK_ExecCommand("ProjectFile = "D:\hk32f103cbt6\hk32f103cbt6a_razer\MDK_ARM\JLinkSettings.ini"", ...). 
T5144 11204:186.079 - 0.748ms returns 0x00
T5144 11204:186.744 JLINK_ExecCommand("Device = HK32F103CBT6A", ...). 
T5144 11204:186.860   Flash bank @ 0x08000000: SFL: Parsing sectorization info from ELF file
T5144 11204:186.865     FlashDevice.SectorInfo[0]: .SectorSize = 0x00000400, .SectorStartAddr = 0x00000000
T5144 11204:186.870   OFL: Init() present @ offset 0x000000B5
T5144 11204:186.874   OFL: UnInit() present @ offset 0x00000329
T5144 11204:186.878   OFL: EraseSector() present @ offset 0x00000051
T5144 11204:186.882   OFL: ProgramPage() present @ offset 0x00000139
T5144 11204:186.886   OFL: EraseChip() present @ offset 0x00000001
T5144 11204:186.890   OFL: BlankCheck() N/A
T5144 11204:186.894   OFL: Verify() N/A
T5144 11204:186.898   OFL: SEGGER_FL_Erase() N/A
T5144 11204:186.901   OFL: SEGGER_OPEN_Erase() N/A
T5144 11204:186.905   OFL: SEGGER_FL_Program() N/A
T5144 11204:186.909   OFL: SEGGER_OPEN_Program() N/A
T5144 11204:186.913   OFL: SEGGER_FL_Read() N/A
T5144 11204:186.917   OFL: SEGGER_OPEN_Read() N/A
T5144 11204:186.920   OFL: SEGGER_FL_CalcCRC() N/A
T5144 11204:186.924   OFL: SEGGER_OPEN_CalcCRC() N/A
T5144 11204:186.928   OFL: SEGGER_FL_Start() N/A
T5144 11204:186.932   OFL: SEGGER_OPEN_Start() N/A
T5144 11204:186.936   OFL: SEGGER_FL_GetFlashInfo() N/A
T5144 11204:186.939   OFL: SEGGER_OPEN_GetFlashInfo() N/A
T5144 11204:186.943   OFL: SEGGER_FL_Verify() N/A
T5144 11204:186.947   OFL: SEGGER_FL_CheckBlank() N/A
T5144 11204:186.951   OFL: SEGGER_FL_Prepare() N/A
T5144 11204:186.955   OFL: SEGGER_FL_Restore() N/A
T5144 11204:186.958   OFL: SEGGER_FL_EraseChip() N/A
T5144 11204:186.962   OFL var <SEGGER_FL_GoIntEn>: N/A
T5144 11204:187.026   Device "HK32F103CBT6A" selected.
T5144 11204:187.634 - 0.879ms returns 0x00
T5144 11204:187.641 JLINK_ExecCommand("DisableConnectionTimeout", ...). 
T5144 11204:187.646 - 0.001ms returns 0x01
T5144 11204:187.652 JLINK_GetHardwareVersion()
T5144 11204:187.656 - 0.003ms returns 97000
T5144 11204:187.659 JLINK_GetDLLVersion()
T5144 11204:187.662 - 0.002ms returns 79214
T5144 11204:187.666 JLINK_GetOEMString(...)
T5144 11204:187.669 JLINK_GetFirmwareString(...)
T5144 11204:187.672 - 0.002ms
T5144 11204:187.685 JLINK_GetDLLVersion()
T5144 11204:187.688 - 0.002ms returns 79214
T5144 11204:187.714 JLINK_GetCompileDateTime()
T5144 11204:187.717 - 0.002ms
T5144 11204:187.723 JLINK_GetFirmwareString(...)
T5144 11204:187.726 - 0.002ms
T5144 11204:187.731 JLINK_GetHardwareVersion()
T5144 11204:187.733 - 0.002ms returns 97000
T5144 11204:187.739 JLINK_GetSN()
T5144 11204:187.742 - 0.002ms returns 150710770
T5144 11204:187.746 JLINK_GetOEMString(...)
T5144 11204:187.755 JLINK_TIF_Select(JLINKARM_TIF_SWD)
T5144 11204:189.428 - 1.673ms returns 0x00
T5144 11204:189.439 JLINK_HasError()
T5144 11204:189.445 JLINK_SetSpeed(5000)
T5144 11204:189.748 - 0.303ms
T5144 11204:189.753 JLINK_GetId()
T5144 11204:191.293   Found SW-DP with ID 0x2BA01477
T5144 11204:196.219   DPIDR: 0x2BA01477
T5144 11204:196.234   CoreSight SoC-400 or earlier
T5144 11204:196.241   Scanning AP map to find all available APs
T5144 11204:197.466   AP[1]: Stopped AP scan as end of AP map has been reached
T5144 11204:197.472   AP[0]: AHB-AP (IDR: 0x24770011)
T5144 11204:197.478   Iterating through AP map to find AHB-AP to use
T5144 11204:199.043   AP[0]: Core found
T5144 11204:199.076   AP[0]: AHB-AP ROM base: 0xE00FF000
T5144 11204:199.881   CPUID register: 0x412FC231. Implementer code: 0x41 (ARM)
T5144 11204:199.887   Found Cortex-M3 r2p1, Little endian.
T5144 11204:200.724   -- Max. mem block: 0x00010788
T5144 11204:201.624   CPU_ReadMem(4 bytes @ 0xE000EDF0)
T5144 11204:202.272   CPU_WriteMem(4 bytes @ 0xE000EDF0)
T5144 11204:202.970   CPU_ReadMem(4 bytes @ 0xE0002000)
T5144 11204:203.625   FPUnit: 6 code (BP) slots and 2 literal slots
T5144 11204:203.630   CPU_ReadMem(4 bytes @ 0xE000EDFC)
T5144 11204:204.363   CPU_WriteMem(4 bytes @ 0xE000EDFC)
T5144 11204:204.976   CPU_ReadMem(4 bytes @ 0xE0001000)
T5144 11204:205.581   CPU_WriteMem(4 bytes @ 0xE0001000)
T5144 11204:206.278   CPU_ReadMem(4 bytes @ 0xE000ED88)
T5144 11204:206.843   CPU_WriteMem(4 bytes @ 0xE000ED88)
T5144 11204:207.442   CPU_ReadMem(4 bytes @ 0xE000ED88)
T5144 11204:208.052   CPU_WriteMem(4 bytes @ 0xE000ED88)
T5144 11204:208.635   CoreSight components:
T5144 11204:208.642   ROMTbl[0] @ E00FF000
T5144 11204:208.646   CPU_ReadMem(64 bytes @ 0xE00FF000)
T5144 11204:209.818   CPU_ReadMem(32 bytes @ 0xE000EFE0)
T5144 11204:210.723   [0][0]: E000E000 CID B105E00D PID 000BB000 SCS
T5144 11204:210.728   CPU_ReadMem(32 bytes @ 0xE0001FE0)
T5144 11204:211.564   [0][1]: E0001000 CID B105E00D PID 003BB002 DWT
T5144 11204:211.569   CPU_ReadMem(32 bytes @ 0xE0002FE0)
T5144 11204:212.411   [0][2]: E0002000 CID B105E00D PID 002BB003 FPB
T5144 11204:212.415   CPU_ReadMem(32 bytes @ 0xE0000FE0)
T5144 11204:213.258   [0][3]: E0000000 CID B105E00D PID 003BB001 ITM
T5144 11204:213.277   CPU_ReadMem(32 bytes @ 0xE0040FE0)
T5144 11204:214.201   [0][4]: E0040000 CID B105900D PID 003BB923 TPIU-Lite
T5144 11204:214.780 - 25.027ms returns 0x2BA01477
T5144 11204:214.789 JLINK_GetDLLVersion()
T5144 11204:214.792 - 0.003ms returns 79214
T5144 11204:214.825 JLINK_CORE_GetFound()
T5144 11204:214.828 - 0.003ms returns 0x30000FF
T5144 11204:214.833 JLINK_GetDebugInfo(0x100 = JLINKARM_ROM_TABLE_ADDR_INDEX)
T5144 11204:214.836   Value=0xE00FF000
T5144 11204:214.840 - 0.007ms returns 0
T5144 11204:214.848 JLINK_GetDebugInfo(0x100 = JLINKARM_ROM_TABLE_ADDR_INDEX)
T5144 11204:214.850   Value=0xE00FF000
T5144 11204:214.854 - 0.006ms returns 0
T5144 11204:214.858 JLINK_GetDebugInfo(0x101 = JLINKARM_DEBUG_INFO_ETM_ADDR_INDEX)
T5144 11204:214.860   Value=0x00000000
T5144 11204:214.864 - 0.006ms returns 0
T5144 11204:214.869 JLINK_ReadMemEx(0xE0041FF0, 0x10 Bytes, Flags = 0x02000004)
T5144 11204:214.877   CPU_ReadMem(16 bytes @ 0xE0041FF0)
T5144 11204:215.510   Data:  00 00 00 00 00 00 00 00 00 00 00 00 00 00 00 00
T5144 11204:215.515 - 0.646ms returns 16 (0x10)
T5144 11204:215.519 JLINK_GetDebugInfo(0x102 = JLINKARM_DEBUG_INFO_MTB_ADDR_INDEX)
T5144 11204:215.522   Value=0x00000000
T5144 11204:215.526 - 0.007ms returns 0
T5144 11204:215.529 JLINK_GetDebugInfo(0x103 = JLINKARM_DEBUG_INFO_TPIU_ADDR_INDEX)
T5144 11204:215.534   Value=0xE0040000
T5144 11204:215.540 - 0.010ms returns 0
T5144 11204:215.543 JLINK_GetDebugInfo(0x104 = JLINKARM_DEBUG_INFO_ITM_ADDR_INDEX)
T5144 11204:215.546   Value=0xE0000000
T5144 11204:215.550 - 0.006ms returns 0
T5144 11204:215.553 JLINK_GetDebugInfo(0x105 = JLINKARM_DEBUG_INFO_DWT_ADDR_INDEX)
T5144 11204:215.556   Value=0xE0001000
T5144 11204:215.560 - 0.006ms returns 0
T5144 11204:215.564 JLINK_GetDebugInfo(0x106 = JLINKARM_DEBUG_INFO_FPB_ADDR_INDEX)
T5144 11204:215.567   Value=0xE0002000
T5144 11204:215.571 - 0.007ms returns 0
T5144 11204:215.574 JLINK_GetDebugInfo(0x107 = JLINKARM_DEBUG_INFO_NVIC_ADDR_INDEX)
T5144 11204:215.577   Value=0xE000E000
T5144 11204:215.581 - 0.007ms returns 0
T5144 11204:215.585 JLINK_GetDebugInfo(0x10C = JLINKARM_DEBUG_INFO_DBG_ADDR_INDEX)
T5144 11204:215.588   Value=0xE000EDF0
T5144 11204:215.592 - 0.006ms returns 0
T5144 11204:215.595 JLINK_GetDebugInfo(0x01 = Unknown)
T5144 11204:215.598   Value=0x00000000
T5144 11204:215.602 - 0.007ms returns 0
T5144 11204:215.607 JLINK_ReadMemU32(0xE000ED00, 0x1 Items)
T5144 11204:215.611   CPU_ReadMem(4 bytes @ 0xE000ED00)
T5144 11204:216.314   Data:  31 C2 2F 41
T5144 11204:216.319   Debug reg: CPUID
T5144 11204:216.323 - 0.716ms returns 1 (0x1)
T5144 11204:216.328 JLINK_GetDebugInfo(0x10F = JLINKARM_DEBUG_INFO_HAS_CORTEX_M_SECURITY_EXT_INDEX)
T5144 11204:216.331   Value=0x00000000
T5144 11204:216.335 - 0.007ms returns 0
T5144 11204:216.339 JLINK_HasError()
T5144 11204:216.344 JLINK_SetResetType(JLINKARM_CM3_RESET_TYPE_NORMAL)
T5144 11204:216.347 - 0.003ms returns JLINKARM_CM3_RESET_TYPE_NORMAL
T5144 11204:216.351 JLINK_Reset()
T5144 11204:216.356   CPU is running
T5144 11204:216.361   CPU_WriteMem(4 bytes @ 0xE000EDF0)
T5144 11204:216.985   CPU is running
T5144 11204:216.989   CPU_WriteMem(4 bytes @ 0xE000EDFC)
T5144 11204:217.574   Reset: Halt core after reset via DEMCR.VC_CORERESET.
T5144 11204:218.451   Reset: Reset device via AIRCR.SYSRESETREQ.
T5144 11204:218.456   CPU is running
T5144 11204:218.461   CPU_WriteMem(4 bytes @ 0xE000ED0C)
T5144 11204:273.620   CPU_ReadMem(4 bytes @ 0xE000EDF0)
T5144 11204:274.361   CPU_ReadMem(4 bytes @ 0xE000EDF0)
T5144 11204:278.968   CPU_WriteMem(4 bytes @ 0xE000EDFC)
T5144 11204:285.676   CPU_ReadMem(4 bytes @ 0xE000EDF0)
T5144 11204:290.415   CPU_WriteMem(4 bytes @ 0xE0002000)
T5144 11204:291.501   CPU_ReadMem(4 bytes @ 0xE000EDFC)
T5144 11204:292.291   CPU_ReadMem(4 bytes @ 0xE0001000)
T5144 11204:293.206 - 76.853ms
T5144 11204:293.284 JLINK_HasError()
T5144 11204:293.315 JLINK_ReadReg(R15 (PC))
T5144 11204:293.339 - 0.023ms returns 0x08000188
T5144 11204:293.359 JLINK_ReadReg(XPSR)
T5144 11204:293.372 - 0.013ms returns 0x01000000
T5144 11204:293.393 JLINK_Halt()
T5144 11204:293.406 - 0.011ms returns 0x00
T5144 11204:293.425 JLINK_ReadMemU32(0xE000EDF0, 0x1 Items)
T5144 11204:293.448   CPU_ReadMem(4 bytes @ 0xE000EDF0)
T5144 11204:294.152   Data:  03 00 03 00
T5144 11204:294.185   Debug reg: DHCSR
T5144 11204:294.204 - 0.779ms returns 1 (0x1)
T5144 11204:294.251 JLINK_WriteU32_64(0xE000EDF0, 0xA05F0003)
T5144 11204:294.263   Debug reg: DHCSR
T5144 11204:294.846   CPU_WriteMem(4 bytes @ 0xE000EDF0)
T5144 11204:295.505 - 1.254ms returns 0 (0x00000000)
T5144 11204:295.529 JLINK_WriteU32_64(0xE000EDFC, 0x01000000)
T5144 11204:295.540   Debug reg: DEMCR
T5144 11204:295.561   CPU_WriteMem(4 bytes @ 0xE000EDFC)
T5144 11204:296.218 - 0.689ms returns 0 (0x00000000)
T5144 11204:296.327 JLINK_GetHWStatus(...)
T5144 11204:296.800 - 0.472ms returns 0
T5144 11204:296.844 JLINK_GetNumBPUnits(Type = 0xFFFFFF00)
T5144 11204:296.855 - 0.011ms returns 0x06
T5144 11204:296.867 JLINK_GetNumBPUnits(Type = 0xF0)
T5144 11204:296.877 - 0.009ms returns 0x2000
T5144 11204:296.890 JLINK_GetNumWPUnits()
T5144 11204:296.900 - 0.009ms returns 4
T5144 11204:296.930 JLINK_GetSpeed()
T5144 11204:296.940 - 0.010ms returns 4000
T5144 11204:296.963 JLINK_ReadMemU32(0xE000E004, 0x1 Items)
T5144 11204:296.979   CPU_ReadMem(4 bytes @ 0xE000E004)
T5144 11204:297.569   Data:  02 00 00 00
T5144 11204:297.586 - 0.622ms returns 1 (0x1)
T5144 11204:297.599 JLINK_ReadMemU32(0xE000E004, 0x1 Items)
T5144 11204:297.612   CPU_ReadMem(4 bytes @ 0xE000E004)
T5144 11204:298.321   Data:  02 00 00 00
T5144 11204:298.336 - 0.736ms returns 1 (0x1)
T5144 11204:298.351 JLINK_WriteMemEx(0xE0001000, 0x0000001C Bytes, Flags = 0x02000004)
T5144 11204:298.361   Data:  01 00 00 00 00 00 00 00 00 00 00 00 00 00 00 00 ...
T5144 11204:298.381   CPU_WriteMem(28 bytes @ 0xE0001000)
T5144 11204:299.201 - 0.849ms returns 0x1C
T5144 11204:299.238 JLINK_HasError()
T5144 11204:299.252 JLINK_ReadReg(R15 (PC))
T5144 11204:299.266 - 0.014ms returns 0x08000188
T5144 11204:299.277 JLINK_ReadReg(XPSR)
T5144 11204:299.286 - 0.009ms returns 0x01000000
T5144 11204:369.634 JLINK_HasError()
T5144 11204:369.667 JLINK_SetResetType(JLINKARM_CM3_RESET_TYPE_NORMAL)
T5144 11204:369.675 - 0.008ms returns JLINKARM_CM3_RESET_TYPE_NORMAL
T5144 11204:369.683 JLINK_Reset()
T5144 11204:369.704   CPU_WriteMem(4 bytes @ 0xE000EDF0)
T5144 11204:370.435   CPU_WriteMem(4 bytes @ 0xE000EDFC)
T5144 11204:371.252   Reset: Halt core after reset via DEMCR.VC_CORERESET.
T5144 11204:372.239   Reset: Reset device via AIRCR.SYSRESETREQ.
T5144 11204:372.247   CPU_WriteMem(4 bytes @ 0xE000ED0C)
T5144 11204:427.005   CPU_ReadMem(4 bytes @ 0xE000EDF0)
T5144 11204:427.883   CPU_ReadMem(4 bytes @ 0xE000EDF0)
T5144 11204:428.634   CPU_WriteMem(4 bytes @ 0xE000EDFC)
T5144 11204:435.056   CPU_ReadMem(4 bytes @ 0xE000EDF0)
T5144 11204:439.831   CPU_WriteMem(4 bytes @ 0xE0002000)
T5144 11204:440.715   CPU_ReadMem(4 bytes @ 0xE000EDFC)
T5144 11204:441.451   CPU_ReadMem(4 bytes @ 0xE0001000)
T5144 11204:442.230 - 72.545ms
T5144 11204:442.415 JLINK_HasError()
T5144 11204:442.442 JLINK_ReadReg(R15 (PC))
T5144 11204:442.467 - 0.025ms returns 0x08000188
T5144 11204:442.488 JLINK_ReadReg(XPSR)
T5144 11204:442.505 - 0.017ms returns 0x01000000
T5144 11204:443.532 JLINK_ReadMemEx(0x08000188, 0x3C Bytes, Flags = 0x02000000)
T5144 11204:443.595   CPU_ReadMem(128 bytes @ 0x08000180)
T5144 11204:445.276    -- Updating C cache (128 bytes @ 0x08000180)
T5144 11204:445.312    -- Read from C cache (60 bytes @ 0x08000188)
T5144 11204:445.334   Data:  09 48 80 47 09 48 00 47 FE E7 FE E7 FE E7 FE E7 ...
T5144 11204:445.353 - 1.823ms returns 60 (0x3C)
T5144 11204:497.557 JLINK_ReadMemEx(0x40010C00, 0xC Bytes, Flags = 0x02000004)
T5144 11204:497.582   CPU_ReadMem(12 bytes @ 0x40010C00)
T5144 11204:498.508   Data:  44 44 44 44 44 44 44 44 00 00 00 00
T5144 11204:498.515 - 0.957ms returns 12 (0xC)
T5144 11204:498.521 JLINK_ReadMemEx(0x40010C00, 0x4 Bytes, Flags = 0x02000004)
T5144 11204:498.525   CPU_ReadMem(4 bytes @ 0x40010C00)
T5144 11204:499.282   Data:  44 44 44 44
T5144 11204:499.291 - 0.769ms returns 4 (0x4)
T5144 11204:499.298 JLINK_ReadMemEx(0x40010C04, 0x4 Bytes, Flags = 0x02000004)
T5144 11204:499.303   CPU_ReadMem(4 bytes @ 0x40010C04)
T5144 11204:499.971   Data:  44 44 44 44
T5144 11204:499.977 - 0.678ms returns 4 (0x4)
T5144 11204:499.981 JLINK_ReadMemEx(0x40010C08, 0x4 Bytes, Flags = 0x02000004)
T5144 11204:499.985   CPU_ReadMem(4 bytes @ 0x40010C08)
T5144 11204:500.665   Data:  00 00 00 00
T5144 11204:500.677 - 0.695ms returns 4 (0x4)
T5144 11204:500.686 JLINK_ReadMemEx(0x40010C0C, 0x4 Bytes, Flags = 0x02000004)
T5144 11204:500.693   CPU_ReadMem(4 bytes @ 0x40010C0C)
T5144 11204:501.377   Data:  00 00 00 00
T5144 11204:501.393 - 0.707ms returns 4 (0x4)
T5144 11204:501.400 JLINK_ReadMemEx(0x40010C0C, 0x4 Bytes, Flags = 0x02000004)
T5144 11204:501.404   CPU_ReadMem(4 bytes @ 0x40010C0C)
T5144 11204:502.067   Data:  00 00 00 00
T5144 11204:502.073 - 0.673ms returns 4 (0x4)
T5144 11204:502.081 JLINK_ReadMemEx(0x40010C18, 0x4 Bytes, Flags = 0x02000004)
T5144 11204:502.086   CPU_ReadMem(4 bytes @ 0x40010C18)
T5144 11204:502.616   Data:  00 00 00 00
T5144 11204:502.620 - 0.539ms returns 4 (0x4)
T5144 11204:502.624 JLINK_ReadMemEx(0x40010C18, 0x4 Bytes, Flags = 0x02000004)
T5144 11204:502.627   CPU_ReadMem(4 bytes @ 0x40010C18)
T5144 11204:503.314   Data:  00 00 00 00
T5144 11204:503.319 - 0.694ms returns 4 (0x4)
T5144 11204:528.743 JLINK_ReadMemEx(0x40005400, 0x20 Bytes, Flags = 0x02000004)
T5144 11204:528.775   CPU_ReadMem(32 bytes @ 0x40005400)
T5144 11204:529.711   Data:  00 00 00 00 00 00 00 00 00 00 00 00 00 00 00 00 ...
T5144 11204:529.748 - 1.005ms returns 32 (0x20)
T5144 11204:529.760 JLINK_ReadMemEx(0x40005400, 0x4 Bytes, Flags = 0x02000004)
T5144 11204:529.774   CPU_ReadMem(4 bytes @ 0x40005400)
T5144 11204:530.426   Data:  00 00 00 00
T5144 11204:530.441 - 0.681ms returns 4 (0x4)
T5144 11204:530.445 JLINK_ReadMemEx(0x40005404, 0x4 Bytes, Flags = 0x02000004)
T5144 11204:530.449   CPU_ReadMem(4 bytes @ 0x40005404)
T5144 11204:531.066   Data:  00 00 00 00
T5144 11204:531.070 - 0.624ms returns 4 (0x4)
T5144 11204:531.074 JLINK_ReadMemEx(0x40005408, 0x4 Bytes, Flags = 0x02000004)
T5144 11204:531.077   CPU_ReadMem(4 bytes @ 0x40005408)
T5144 11204:531.636   Data:  00 00 00 00
T5144 11204:531.670 - 0.596ms returns 4 (0x4)
T5144 11204:531.676 JLINK_ReadMemEx(0x4000540C, 0x4 Bytes, Flags = 0x02000004)
T5144 11204:531.682   CPU_ReadMem(4 bytes @ 0x4000540C)
T5144 11204:532.306   Data:  00 00 00 00
T5144 11204:532.314 - 0.638ms returns 4 (0x4)
T5144 11204:532.320 JLINK_ReadMemEx(0x40005410, 0x4 Bytes, Flags = 0x02000004)
T5144 11204:532.324   CPU_ReadMem(4 bytes @ 0x40005410)
T5144 11204:532.969   Data:  00 00 00 00
T5144 11204:532.974 - 0.654ms returns 4 (0x4)
T5144 11204:532.979 JLINK_ReadMemEx(0x40005414, 0x4 Bytes, Flags = 0x02000004)
T5144 11204:532.982   CPU_ReadMem(4 bytes @ 0x40005414)
T5144 11204:533.633   Data:  00 00 00 00
T5144 11204:533.643 - 0.663ms returns 4 (0x4)
T5144 11204:533.649 JLINK_ReadMemEx(0x40005418, 0x4 Bytes, Flags = 0x02000004)
T5144 11204:533.654   CPU_ReadMem(4 bytes @ 0x40005418)
T5144 11204:534.296   Data:  00 00 00 00
T5144 11204:534.302 - 0.653ms returns 4 (0x4)
T5144 11204:534.307 JLINK_ReadMemEx(0x4000541C, 0x4 Bytes, Flags = 0x02000004)
T5144 11204:534.312   CPU_ReadMem(4 bytes @ 0x4000541C)
T5144 11204:534.909   Data:  00 00 00 00
T5144 11204:534.937 - 0.629ms returns 4 (0x4)
T5144 11204:534.944 JLINK_ReadMemEx(0x40005420, 0x4 Bytes, Flags = 0x02000004)
T5144 11204:534.949   CPU_ReadMem(4 bytes @ 0x40005420)
T5144 11204:535.593   Data:  00 00 00 00
T5144 11204:535.628 - 0.684ms returns 4 (0x4)
T5144 11204:535.631 JLINK_ReadMemEx(0x40005420, 0x4 Bytes, Flags = 0x02000004)
T5144 11204:535.635   CPU_ReadMem(4 bytes @ 0x40005420)
T5144 11204:536.228   Data:  00 00 00 00
T5144 11204:536.233 - 0.601ms returns 4 (0x4)
T5144 11204:561.913 JLINK_ReadMemEx(0xE000E004, 0x4 Bytes, Flags = 0x02000004)
T5144 11204:561.939   CPU_ReadMem(4 bytes @ 0xE000E004)
T5144 11204:562.620   Data:  02 00 00 00
T5144 11204:562.649 - 0.736ms returns 4 (0x4)
T5144 11204:562.662 JLINK_ReadMemEx(0xE000E004, 0x4 Bytes, Flags = 0x02000004)
T5144 11204:562.675   CPU_ReadMem(4 bytes @ 0xE000E004)
T5144 11204:563.294   Data:  02 00 00 00
T5144 11204:563.298 - 0.635ms returns 4 (0x4)
T5144 11204:563.302 JLINK_ReadMemEx(0xE000E100, 0x4 Bytes, Flags = 0x02000004)
T5144 11204:563.306   CPU_ReadMem(4 bytes @ 0xE000E100)
T5144 11204:563.933   Data:  00 00 00 00
T5144 11204:563.965 - 0.662ms returns 4 (0x4)
T5144 11204:563.969 JLINK_ReadMemEx(0xE000E100, 0x4 Bytes, Flags = 0x02000004)
T5144 11204:563.972   CPU_ReadMem(4 bytes @ 0xE000E100)
T5144 11204:564.517   Data:  00 00 00 00
T5144 11204:564.525 - 0.556ms returns 4 (0x4)
T5144 11204:564.531 JLINK_ReadMemEx(0xE000E104, 0x4 Bytes, Flags = 0x02000004)
T5144 11204:564.536   CPU_ReadMem(4 bytes @ 0xE000E104)
T5144 11204:565.191   Data:  00 00 00 00
T5144 11204:565.196 - 0.664ms returns 4 (0x4)
T5144 11204:565.200 JLINK_ReadMemEx(0xE000E104, 0x4 Bytes, Flags = 0x02000004)
T5144 11204:565.204   CPU_ReadMem(4 bytes @ 0xE000E104)
T5144 11204:565.762   Data:  00 00 00 00
T5144 11204:565.770 - 0.569ms returns 4 (0x4)
T5144 11204:565.774 JLINK_ReadMemEx(0xE000E180, 0x4 Bytes, Flags = 0x02000004)
T5144 11204:565.779   CPU_ReadMem(4 bytes @ 0xE000E180)
T5144 11204:566.427   Data:  00 00 00 00
T5144 11204:566.446 - 0.672ms returns 4 (0x4)
T5144 11204:566.451 JLINK_ReadMemEx(0xE000E180, 0x4 Bytes, Flags = 0x02000004)
T5144 11204:566.454   CPU_ReadMem(4 bytes @ 0xE000E180)
T5144 11204:567.108   Data:  00 00 00 00
T5144 11204:567.113 - 0.662ms returns 4 (0x4)
T5144 11204:567.117 JLINK_ReadMemEx(0xE000E184, 0x4 Bytes, Flags = 0x02000004)
T5144 11204:567.120   CPU_ReadMem(4 bytes @ 0xE000E184)
T5144 11204:567.839   Data:  00 00 00 00
T5144 11204:567.843 - 0.726ms returns 4 (0x4)
T5144 11204:567.846 JLINK_ReadMemEx(0xE000E184, 0x4 Bytes, Flags = 0x02000004)
T5144 11204:567.850   CPU_ReadMem(4 bytes @ 0xE000E184)
T5144 11204:568.465   Data:  00 00 00 00
T5144 11204:568.471 - 0.624ms returns 4 (0x4)
T5144 11204:568.475 JLINK_ReadMemEx(0xE000E200, 0x4 Bytes, Flags = 0x02000004)
T5144 11204:568.479   CPU_ReadMem(4 bytes @ 0xE000E200)
T5144 11204:569.061   Data:  00 00 00 00
T5144 11204:569.065 - 0.589ms returns 4 (0x4)
T5144 11204:569.070 JLINK_ReadMemEx(0xE000E200, 0x4 Bytes, Flags = 0x02000004)
T5144 11204:569.074   CPU_ReadMem(4 bytes @ 0xE000E200)
T5144 11204:569.626   Data:  00 00 00 00
T5144 11204:569.630 - 0.559ms returns 4 (0x4)
T5144 11204:569.635 JLINK_ReadMemEx(0xE000E204, 0x4 Bytes, Flags = 0x02000004)
T5144 11204:569.638   CPU_ReadMem(4 bytes @ 0xE000E204)
T5144 11204:570.434   Data:  00 00 00 00
T5144 11204:570.455 - 0.820ms returns 4 (0x4)
T5144 11204:570.460 JLINK_ReadMemEx(0xE000E204, 0x4 Bytes, Flags = 0x02000004)
T5144 11204:570.464   CPU_ReadMem(4 bytes @ 0xE000E204)
T5144 11204:571.136   Data:  00 00 00 00
T5144 11204:571.141 - 0.680ms returns 4 (0x4)
T5144 11204:571.146 JLINK_ReadMemEx(0xE000E280, 0x4 Bytes, Flags = 0x02000004)
T5144 11204:571.150   CPU_ReadMem(4 bytes @ 0xE000E280)
T5144 11204:571.899   Data:  00 00 00 00
T5144 11204:571.924 - 0.777ms returns 4 (0x4)
T5144 11204:571.930 JLINK_ReadMemEx(0xE000E280, 0x4 Bytes, Flags = 0x02000004)
T5144 11204:571.933   CPU_ReadMem(4 bytes @ 0xE000E280)
T5144 11204:572.560   Data:  00 00 00 00
T5144 11204:572.576 - 0.646ms returns 4 (0x4)
T5144 11204:572.581 JLINK_ReadMemEx(0xE000E284, 0x4 Bytes, Flags = 0x02000004)
T5144 11204:572.584   CPU_ReadMem(4 bytes @ 0xE000E284)
T5144 11204:573.149   Data:  00 00 00 00
T5144 11204:573.154 - 0.573ms returns 4 (0x4)
T5144 11204:573.160 JLINK_ReadMemEx(0xE000E284, 0x4 Bytes, Flags = 0x02000004)
T5144 11204:573.164   CPU_ReadMem(4 bytes @ 0xE000E284)
T5144 11204:573.838   Data:  00 00 00 00
T5144 11204:573.844 - 0.683ms returns 4 (0x4)
T5144 11204:573.851 JLINK_ReadMemEx(0xE000E300, 0x4 Bytes, Flags = 0x02000004)
T5144 11204:573.854   CPU_ReadMem(4 bytes @ 0xE000E300)
T5144 11204:574.585   Data:  00 00 00 00
T5144 11204:574.589 - 0.738ms returns 4 (0x4)
T5144 11204:574.595 JLINK_ReadMemEx(0xE000E300, 0x4 Bytes, Flags = 0x02000004)
T5144 11204:574.598   CPU_ReadMem(4 bytes @ 0xE000E300)
T5144 11204:575.271   Data:  00 00 00 00
T5144 11204:575.320 - 0.725ms returns 4 (0x4)
T5144 11204:575.326 JLINK_ReadMemEx(0xE000E304, 0x4 Bytes, Flags = 0x02000004)
T5144 11204:575.329   CPU_ReadMem(4 bytes @ 0xE000E304)
T5144 11204:575.940   Data:  00 00 00 00
T5144 11204:575.944 - 0.618ms returns 4 (0x4)
T5144 11204:575.949 JLINK_ReadMemEx(0xE000E304, 0x4 Bytes, Flags = 0x02000004)
T5144 11204:575.952   CPU_ReadMem(4 bytes @ 0xE000E304)
T5144 11204:576.480   Data:  00 00 00 00
T5144 11204:576.487 - 0.537ms returns 4 (0x4)
T5144 11204:576.498 JLINK_ReadMemEx(0xE000E400, 0x38 Bytes, Flags = 0x02000004)
T5144 11204:576.503   CPU_ReadMem(56 bytes @ 0xE000E400)
T5144 11204:577.562   Data:  00 00 00 00 00 00 00 00 00 00 00 00 00 00 00 00 ...
T5144 11204:577.566 - 1.068ms returns 56 (0x38)
T5144 11204:577.572 JLINK_ReadMemEx(0xE000E400, 0x4 Bytes, Flags = 0x02000004)
T5144 11204:577.575   CPU_ReadMem(4 bytes @ 0xE000E400)
T5144 11204:578.146   Data:  00 00 00 00
T5144 11204:578.150 - 0.578ms returns 4 (0x4)
T5144 11204:578.155 JLINK_ReadMemEx(0xE000E404, 0x4 Bytes, Flags = 0x02000004)
T5144 11204:578.160   CPU_ReadMem(4 bytes @ 0xE000E404)
T5144 11204:578.775   Data:  00 00 00 00
T5144 11204:578.810 - 0.655ms returns 4 (0x4)
T5144 11204:578.816 JLINK_ReadMemEx(0xE000E408, 0x4 Bytes, Flags = 0x02000004)
T5144 11204:578.819   CPU_ReadMem(4 bytes @ 0xE000E408)
T5144 11204:579.439   Data:  00 00 00 00
T5144 11204:579.450 - 0.633ms returns 4 (0x4)
T5144 11204:579.457 JLINK_ReadMemEx(0xE000E40C, 0x4 Bytes, Flags = 0x02000004)
T5144 11204:579.463   CPU_ReadMem(4 bytes @ 0xE000E40C)
T5144 11204:580.066   Data:  00 00 00 00
T5144 11204:580.071 - 0.614ms returns 4 (0x4)
T5144 11204:580.077 JLINK_ReadMemEx(0xE000E410, 0x4 Bytes, Flags = 0x02000004)
T5144 11204:580.081   CPU_ReadMem(4 bytes @ 0xE000E410)
T5144 11204:580.675   Data:  00 00 00 00
T5144 11204:580.725 - 0.646ms returns 4 (0x4)
T5144 11204:580.741 JLINK_ReadMemEx(0xE000E414, 0x4 Bytes, Flags = 0x02000004)
T5144 11204:580.744   CPU_ReadMem(4 bytes @ 0xE000E414)
T5144 11204:581.464   Data:  00 00 00 00
T5144 11204:581.469 - 0.728ms returns 4 (0x4)
T5144 11204:581.475 JLINK_ReadMemEx(0xE000E418, 0x4 Bytes, Flags = 0x02000004)
T5144 11204:581.478   CPU_ReadMem(4 bytes @ 0xE000E418)
T5144 11204:582.095   Data:  00 00 00 00
T5144 11204:582.100 - 0.625ms returns 4 (0x4)
T5144 11204:582.106 JLINK_ReadMemEx(0xE000E41C, 0x4 Bytes, Flags = 0x02000004)
T5144 11204:582.110   CPU_ReadMem(4 bytes @ 0xE000E41C)
T5144 11204:582.664   Data:  00 00 00 00
T5144 11204:582.668 - 0.562ms returns 4 (0x4)
T5144 11204:582.674 JLINK_ReadMemEx(0xE000E420, 0x4 Bytes, Flags = 0x02000004)
T5144 11204:582.677   CPU_ReadMem(4 bytes @ 0xE000E420)
T5144 11204:583.331   Data:  00 00 00 00
T5144 11204:583.335 - 0.661ms returns 4 (0x4)
T5144 11204:583.341 JLINK_ReadMemEx(0xE000E424, 0x4 Bytes, Flags = 0x02000004)
T5144 11204:583.344   CPU_ReadMem(4 bytes @ 0xE000E424)
T5144 11204:583.972   Data:  00 00 00 00
T5144 11204:583.999 - 0.657ms returns 4 (0x4)
T5144 11204:584.004 JLINK_ReadMemEx(0xE000E428, 0x4 Bytes, Flags = 0x02000004)
T5144 11204:584.007   CPU_ReadMem(4 bytes @ 0xE000E428)
T5144 11204:584.599   Data:  00 00 00 00
T5144 11204:584.605 - 0.601ms returns 4 (0x4)
T5144 11204:584.612 JLINK_ReadMemEx(0xE000E42C, 0x4 Bytes, Flags = 0x02000004)
T5144 11204:584.616   CPU_ReadMem(4 bytes @ 0xE000E42C)
T5144 11204:585.306   Data:  00 00 00 00
T5144 11204:585.332 - 0.720ms returns 4 (0x4)
T5144 11204:585.339 JLINK_ReadMemEx(0xE000E430, 0x4 Bytes, Flags = 0x02000004)
T5144 11204:585.342   CPU_ReadMem(4 bytes @ 0xE000E430)
T5144 11204:585.977   Data:  00 00 00 00
T5144 11204:585.989 - 0.650ms returns 4 (0x4)
T5144 11204:585.995 JLINK_ReadMemEx(0xE000E434, 0x4 Bytes, Flags = 0x02000004)
T5144 11204:585.998   CPU_ReadMem(4 bytes @ 0xE000E434)
T5144 11204:586.638   Data:  00 00 00 00
T5144 11204:586.642 - 0.647ms returns 4 (0x4)
T5144 11204:586.649 JLINK_ReadMemEx(0xE000E438, 0x4 Bytes, Flags = 0x02000004)
T5144 11204:586.653   CPU_ReadMem(4 bytes @ 0xE000E438)
T5144 11204:587.315   Data:  00 00 00 00
T5144 11204:587.320 - 0.670ms returns 4 (0x4)
T5144 11204:587.326 JLINK_ReadMemEx(0xE000E438, 0x4 Bytes, Flags = 0x02000004)
T5144 11204:587.329   CPU_ReadMem(4 bytes @ 0xE000E438)
T5144 11204:587.902   Data:  00 00 00 00
T5144 11204:587.907 - 0.580ms returns 4 (0x4)
T5144 11204:614.563 JLINK_ReadMemEx(0x40021000, 0x24 Bytes, Flags = 0x02000004)
T5144 11204:614.629   CPU_ReadMem(36 bytes @ 0x40021000)
T5144 11204:615.635   Data:  83 15 00 00 00 00 00 00 00 00 00 00 00 00 00 00 ...
T5144 11204:615.643 - 1.081ms returns 36 (0x24)
T5144 11204:615.651 JLINK_ReadMemEx(0x40021000, 0x4 Bytes, Flags = 0x02000004)
T5144 11204:615.657   CPU_ReadMem(4 bytes @ 0x40021000)
T5144 11204:616.236   Data:  83 15 00 00
T5144 11204:616.244 - 0.592ms returns 4 (0x4)
T5144 11204:616.250 JLINK_ReadMemEx(0x40021004, 0x4 Bytes, Flags = 0x02000004)
T5144 11204:616.255   CPU_ReadMem(4 bytes @ 0x40021004)
T5144 11204:616.876   Data:  00 00 00 00
T5144 11204:616.883 - 0.632ms returns 4 (0x4)
T5144 11204:616.887 JLINK_ReadMemEx(0x40021008, 0x4 Bytes, Flags = 0x02000004)
T5144 11204:616.892   CPU_ReadMem(4 bytes @ 0x40021008)
T5144 11204:617.461   Data:  00 00 00 00
T5144 11204:617.466 - 0.579ms returns 4 (0x4)
T5144 11204:617.483 JLINK_ReadMemEx(0x4002100C, 0x4 Bytes, Flags = 0x02000004)
T5144 11204:617.491   CPU_ReadMem(4 bytes @ 0x4002100C)
T5144 11204:618.095   Data:  00 00 00 00
T5144 11204:618.136 - 0.653ms returns 4 (0x4)
T5144 11204:618.140 JLINK_ReadMemEx(0x40021010, 0x4 Bytes, Flags = 0x02000004)
T5144 11204:618.144   CPU_ReadMem(4 bytes @ 0x40021010)
T5144 11204:618.730   Data:  00 00 00 00
T5144 11204:618.734 - 0.594ms returns 4 (0x4)
T5144 11204:618.738 JLINK_ReadMemEx(0x40021014, 0x4 Bytes, Flags = 0x02000004)
T5144 11204:618.742   CPU_ReadMem(4 bytes @ 0x40021014)
T5144 11204:619.522   Data:  14 00 00 00
T5144 11204:619.526 - 0.787ms returns 4 (0x4)
T5144 11204:619.529 JLINK_ReadMemEx(0x40021018, 0x4 Bytes, Flags = 0x02000004)
T5144 11204:619.532   CPU_ReadMem(4 bytes @ 0x40021018)
T5144 11204:620.138   Data:  00 00 00 00
T5144 11204:620.142 - 0.612ms returns 4 (0x4)
T5144 11204:620.145 JLINK_ReadMemEx(0x4002101C, 0x4 Bytes, Flags = 0x02000004)
T5144 11204:620.148   CPU_ReadMem(4 bytes @ 0x4002101C)
T5144 11204:620.773   Data:  00 00 00 00
T5144 11204:620.777 - 0.631ms returns 4 (0x4)
T5144 11204:620.781 JLINK_ReadMemEx(0x40021020, 0x4 Bytes, Flags = 0x02000004)
T5144 11204:620.784   CPU_ReadMem(4 bytes @ 0x40021020)
T5144 11204:621.336   Data:  00 00 00 00
T5144 11204:621.340 - 0.559ms returns 4 (0x4)
T5144 11204:621.345 JLINK_ReadMemEx(0x40021024, 0x4 Bytes, Flags = 0x02000004)
T5144 11204:621.348   CPU_ReadMem(4 bytes @ 0x40021024)
T5144 11204:621.914   Data:  00 00 00 1C
T5144 11204:621.918 - 0.573ms returns 4 (0x4)
T5144 11204:621.958 JLINK_ReadMemEx(0x40021024, 0x4 Bytes, Flags = 0x02000004)
T5144 11204:621.961   CPU_ReadMem(4 bytes @ 0x40021024)
T5144 11204:622.510   Data:  00 00 00 1C
T5144 11204:622.515 - 0.557ms returns 4 (0x4)
T1ADC 11205:518.337 JLINK_ReadMemEx(0x08000188, 0x2 Bytes, Flags = 0x02000000)
T1ADC 11205:518.364    -- Read from C cache (2 bytes @ 0x08000188)
T1ADC 11205:518.369   Data:  09 48
T1ADC 11205:518.374 - 0.036ms returns 2 (0x2)
T1ADC 11205:518.378 JLINK_HasError()
T1ADC 11205:518.388 JLINK_SetBPEx(Addr = 0x080009EC, Type = 0xFFFFFFF2)
T1ADC 11205:518.394 - 0.006ms returns 0x00000001
T1ADC 11205:518.397 JLINK_HasError()
T1ADC 11205:518.400 JLINK_HasError()
T1ADC 11205:518.406 JLINK_Go()
T1ADC 11205:519.118   CPU_WriteMem(4 bytes @ 0xE0002000)
T1ADC 11205:519.722   CPU_ReadMem(4 bytes @ 0xE0001000)
T1ADC 11205:520.316   CPU_WriteMem(4 bytes @ 0xE0002008)
T1ADC 11205:520.327   CPU_WriteMem(4 bytes @ 0xE000200C)
T1ADC 11205:520.331   CPU_WriteMem(4 bytes @ 0xE0002010)
T1ADC 11205:520.335   CPU_WriteMem(4 bytes @ 0xE0002014)
T1ADC 11205:520.339   CPU_WriteMem(4 bytes @ 0xE0002018)
T1ADC 11205:520.343   CPU_WriteMem(4 bytes @ 0xE000201C)
T1ADC 11205:522.250   CPU_WriteMem(4 bytes @ 0xE0001004)
T1ADC 11205:523.984   Memory map 'after startup completion point' is active
T1ADC 11205:523.992 - 5.586ms
T1ADC 11205:624.186 JLINK_HasError()
T1ADC 11205:624.261 JLINK_IsHalted()
T1ADC 11205:628.407 - 4.143ms returns TRUE
T1ADC 11205:628.476 JLINK_HasError()
T1ADC 11205:628.495 JLINK_Halt()
T1ADC 11205:628.517 - 0.021ms returns 0x00
T1ADC 11205:628.533 JLINK_IsHalted()
T1ADC 11205:628.547 - 0.013ms returns TRUE
T1ADC 11205:628.562 JLINK_IsHalted()
T1ADC 11205:628.575 - 0.012ms returns TRUE
T1ADC 11205:628.591 JLINK_IsHalted()
T1ADC 11205:628.603 - 0.012ms returns TRUE
T1ADC 11205:628.621 JLINK_HasError()
T1ADC 11205:628.639 JLINK_ReadReg(R15 (PC))
T1ADC 11205:628.660 - 0.020ms returns 0x080009EC
T1ADC 11205:628.676 JLINK_ReadReg(XPSR)
T1ADC 11205:628.690 - 0.013ms returns 0x21000000
T1ADC 11205:628.717 JLINK_HasError()
T1ADC 11205:628.752 JLINK_ClrBPEx(BPHandle = 0x00000001)
T1ADC 11205:628.768 - 0.015ms returns 0x00
T1ADC 11205:628.783 JLINK_HasError()
T1ADC 11205:628.798 JLINK_HasError()
T1ADC 11205:628.815 JLINK_ReadMemU32(0xE000ED30, 0x1 Items)
T1ADC 11205:628.982   CPU_ReadMem(4 bytes @ 0xE000ED30)
T1ADC 11205:629.693   Data:  02 00 00 00
T1ADC 11205:629.731 - 0.915ms returns 1 (0x1)
T1ADC 11205:629.754 JLINK_ReadMemU32(0xE0001028, 0x1 Items)
T1ADC 11205:629.785   CPU_ReadMem(4 bytes @ 0xE0001028)
T1ADC 11205:630.494   Data:  00 00 00 00
T1ADC 11205:630.518   Debug reg: DWT_FUNC[0]
T1ADC 11205:630.539 - 0.784ms returns 1 (0x1)
T1ADC 11205:630.559 JLINK_ReadMemU32(0xE0001038, 0x1 Items)
T1ADC 11205:630.579   CPU_ReadMem(4 bytes @ 0xE0001038)
T1ADC 11205:631.268   Data:  00 02 00 00
T1ADC 11205:631.290   Debug reg: DWT_FUNC[1]
T1ADC 11205:631.310 - 0.751ms returns 1 (0x1)
T1ADC 11205:631.330 JLINK_ReadMemU32(0xE0001048, 0x1 Items)
T1ADC 11205:631.347   CPU_ReadMem(4 bytes @ 0xE0001048)
T1ADC 11205:632.015   Data:  00 00 00 00
T1ADC 11205:632.038   Debug reg: DWT_FUNC[2]
T1ADC 11205:632.058 - 0.728ms returns 1 (0x1)
T1ADC 11205:632.078 JLINK_ReadMemU32(0xE0001058, 0x1 Items)
T1ADC 11205:632.095   CPU_ReadMem(4 bytes @ 0xE0001058)
T1ADC 11205:632.867   Data:  00 00 00 00
T1ADC 11205:632.887   Debug reg: DWT_FUNC[3]
T1ADC 11205:632.906 - 0.828ms returns 1 (0x1)
T1ADC 11205:632.997 JLINK_HasError()
T1ADC 11205:633.023 JLINK_ReadReg(R0)
T1ADC 11205:633.039 - 0.016ms returns 0x200000B0
T1ADC 11205:633.055 JLINK_ReadReg(R1)
T1ADC 11205:633.069 - 0.013ms returns 0x200002B0
T1ADC 11205:633.084 JLINK_ReadReg(R2)
T1ADC 11205:633.097 - 0.013ms returns 0x200002B0
T1ADC 11205:633.113 JLINK_ReadReg(R3)
T1ADC 11205:633.126 - 0.012ms returns 0x200002B0
T1ADC 11205:633.141 JLINK_ReadReg(R4)
T1ADC 11205:633.154 - 0.012ms returns 0x00000000
T1ADC 11205:633.169 JLINK_ReadReg(R5)
T1ADC 11205:633.183 - 0.013ms returns 0x20000050
T1ADC 11205:633.197 JLINK_ReadReg(R6)
T1ADC 11205:633.211 - 0.012ms returns 0x00000000
T1ADC 11205:633.226 JLINK_ReadReg(R7)
T1ADC 11205:633.239 - 0.012ms returns 0x00000000
T1ADC 11205:633.254 JLINK_ReadReg(R8)
T1ADC 11205:633.267 - 0.013ms returns 0x00000000
T1ADC 11205:633.283 JLINK_ReadReg(R9)
T1ADC 11205:633.296 - 0.013ms returns 0x00000000
T1ADC 11205:633.311 JLINK_ReadReg(R10)
T1ADC 11205:633.324 - 0.013ms returns 0x08000BBC
T1ADC 11205:633.339 JLINK_ReadReg(R11)
T1ADC 11205:633.352 - 0.012ms returns 0x00000000
T1ADC 11205:633.367 JLINK_ReadReg(R12)
T1ADC 11205:633.380 - 0.012ms returns 0x20000090
T1ADC 11205:633.396 JLINK_ReadReg(R13 (SP))
T1ADC 11205:633.410 - 0.014ms returns 0x200006B0
T1ADC 11205:633.425 JLINK_ReadReg(R14)
T1ADC 11205:633.439 - 0.013ms returns 0x08000177
T1ADC 11205:633.454 JLINK_ReadReg(R15 (PC))
T1ADC 11205:633.467 - 0.013ms returns 0x080009EC
T1ADC 11205:633.483 JLINK_ReadReg(XPSR)
T1ADC 11205:633.496 - 0.013ms returns 0x21000000
T1ADC 11205:633.512 JLINK_ReadReg(MSP)
T1ADC 11205:633.525 - 0.013ms returns 0x200006B0
T1ADC 11205:633.540 JLINK_ReadReg(PSP)
T1ADC 11205:633.553 - 0.013ms returns 0x00000000
T1ADC 11205:633.568 JLINK_ReadReg(CFBP)
T1ADC 11205:633.581 - 0.013ms returns 0x00000000
T5144 11205:638.408 JLINK_HasError()
T5144 11205:638.442 JLINK_ReadMemU32(0xE0001004, 0x1 Items)
T5144 11205:638.466   CPU_ReadMem(4 bytes @ 0xE0001004)
T5144 11205:639.382   Data:  D4 09 00 00
T5144 11205:639.395   Debug reg: DWT_CYCCNT
T5144 11205:639.405 - 0.963ms returns 1 (0x1)
T5144 11205:640.892 JLINK_ReadMemEx(0x40005400, 0x20 Bytes, Flags = 0x02000004)
T5144 11205:640.914   CPU_ReadMem(32 bytes @ 0x40005400)
T5144 11205:641.813   Data:  00 00 00 00 00 00 00 00 00 00 00 00 00 00 00 00 ...
T5144 11205:641.824 - 0.932ms returns 32 (0x20)
T5144 11205:641.834 JLINK_ReadMemEx(0x40005400, 0x4 Bytes, Flags = 0x02000004)
T5144 11205:641.842   CPU_ReadMem(4 bytes @ 0x40005400)
T5144 11205:642.432   Data:  00 00 00 00
T5144 11205:642.443 - 0.608ms returns 4 (0x4)
T5144 11205:642.453 JLINK_ReadMemEx(0x40005404, 0x4 Bytes, Flags = 0x02000004)
T5144 11205:642.464   CPU_ReadMem(4 bytes @ 0x40005404)
T5144 11205:643.102   Data:  00 00 00 00
T5144 11205:643.122 - 0.668ms returns 4 (0x4)
T5144 11205:643.128 JLINK_ReadMemEx(0x40005408, 0x4 Bytes, Flags = 0x02000004)
T5144 11205:643.137   CPU_ReadMem(4 bytes @ 0x40005408)
T5144 11205:643.715   Data:  00 00 00 00
T5144 11205:643.722 - 0.593ms returns 4 (0x4)
T5144 11205:643.729 JLINK_ReadMemEx(0x4000540C, 0x4 Bytes, Flags = 0x02000004)
T5144 11205:643.735   CPU_ReadMem(4 bytes @ 0x4000540C)
T5144 11205:644.309   Data:  00 00 00 00
T5144 11205:644.324 - 0.594ms returns 4 (0x4)
T5144 11205:644.337 JLINK_ReadMemEx(0x40005410, 0x4 Bytes, Flags = 0x02000004)
T5144 11205:644.345   CPU_ReadMem(4 bytes @ 0x40005410)
T5144 11205:644.907   Data:  00 00 00 00
T5144 11205:644.915 - 0.577ms returns 4 (0x4)
T5144 11205:644.921 JLINK_ReadMemEx(0x40005414, 0x4 Bytes, Flags = 0x02000004)
T5144 11205:644.927   CPU_ReadMem(4 bytes @ 0x40005414)
T5144 11205:645.640   Data:  00 00 00 00
T5144 11205:645.656 - 0.734ms returns 4 (0x4)
T5144 11205:645.663 JLINK_ReadMemEx(0x40005418, 0x4 Bytes, Flags = 0x02000004)
T5144 11205:645.669   CPU_ReadMem(4 bytes @ 0x40005418)
T5144 11205:646.304   Data:  00 00 00 00
T5144 11205:646.312 - 0.648ms returns 4 (0x4)
T5144 11205:646.319 JLINK_ReadMemEx(0x4000541C, 0x4 Bytes, Flags = 0x02000004)
T5144 11205:646.325   CPU_ReadMem(4 bytes @ 0x4000541C)
T5144 11205:646.924   Data:  00 00 00 00
T5144 11205:646.932 - 0.612ms returns 4 (0x4)
T5144 11205:646.940 JLINK_ReadMemEx(0x40005420, 0x4 Bytes, Flags = 0x02000004)
T5144 11205:646.946   CPU_ReadMem(4 bytes @ 0x40005420)
T5144 11205:647.557   Data:  00 00 00 00
T5144 11205:647.566 - 0.625ms returns 4 (0x4)
T5144 11205:647.573 JLINK_ReadMemEx(0x40005420, 0x4 Bytes, Flags = 0x02000004)
T5144 11205:647.580   CPU_ReadMem(4 bytes @ 0x40005420)
T5144 11205:648.158   Data:  00 00 00 00
T5144 11205:648.167 - 0.593ms returns 4 (0x4)
T5144 11205:648.433 JLINK_ReadMemEx(0x40021000, 0x24 Bytes, Flags = 0x02000004)
T5144 11205:648.445   CPU_ReadMem(36 bytes @ 0x40021000)
T5144 11205:649.291   Data:  83 15 00 03 0A 04 38 00 00 00 00 00 00 00 00 00 ...
T5144 11205:649.311 - 0.877ms returns 36 (0x24)
T5144 11205:649.324 JLINK_ReadMemEx(0x40021000, 0x4 Bytes, Flags = 0x02000004)
T5144 11205:649.337   CPU_ReadMem(4 bytes @ 0x40021000)
T5144 11205:649.932   Data:  83 15 00 03
T5144 11205:649.950 - 0.626ms returns 4 (0x4)
T5144 11205:649.963 JLINK_ReadMemEx(0x40021004, 0x4 Bytes, Flags = 0x02000004)
T5144 11205:649.977   CPU_ReadMem(4 bytes @ 0x40021004)
T5144 11205:650.589   Data:  0A 04 38 00
T5144 11205:650.596 - 0.634ms returns 4 (0x4)
T5144 11205:650.603 JLINK_ReadMemEx(0x40021008, 0x4 Bytes, Flags = 0x02000004)
T5144 11205:650.609   CPU_ReadMem(4 bytes @ 0x40021008)
T5144 11205:651.327   Data:  00 00 00 00
T5144 11205:651.333 - 0.730ms returns 4 (0x4)
T5144 11205:651.339 JLINK_ReadMemEx(0x4002100C, 0x4 Bytes, Flags = 0x02000004)
T5144 11205:651.344   CPU_ReadMem(4 bytes @ 0x4002100C)
T5144 11205:651.904   Data:  00 00 00 00
T5144 11205:651.911 - 0.572ms returns 4 (0x4)
T5144 11205:651.917 JLINK_ReadMemEx(0x40021010, 0x4 Bytes, Flags = 0x02000004)
T5144 11205:651.921   CPU_ReadMem(4 bytes @ 0x40021010)
T5144 11205:652.503   Data:  00 00 00 00
T5144 11205:652.510 - 0.593ms returns 4 (0x4)
T5144 11205:652.516 JLINK_ReadMemEx(0x40021014, 0x4 Bytes, Flags = 0x02000004)
T5144 11205:652.522   CPU_ReadMem(4 bytes @ 0x40021014)
T5144 11205:653.241   Data:  14 00 00 00
T5144 11205:653.249 - 0.732ms returns 4 (0x4)
T5144 11205:653.255 JLINK_ReadMemEx(0x40021018, 0x4 Bytes, Flags = 0x02000004)
T5144 11205:653.261   CPU_ReadMem(4 bytes @ 0x40021018)
T5144 11205:653.840   Data:  00 00 00 00
T5144 11205:653.849 - 0.593ms returns 4 (0x4)
T5144 11205:653.855 JLINK_ReadMemEx(0x4002101C, 0x4 Bytes, Flags = 0x02000004)
T5144 11205:653.862   CPU_ReadMem(4 bytes @ 0x4002101C)
T5144 11205:654.465   Data:  00 00 00 00
T5144 11205:654.474 - 0.618ms returns 4 (0x4)
T5144 11205:654.481 JLINK_ReadMemEx(0x40021020, 0x4 Bytes, Flags = 0x02000004)
T5144 11205:654.488   CPU_ReadMem(4 bytes @ 0x40021020)
T5144 11205:655.095   Data:  00 00 00 00
T5144 11205:655.105 - 0.624ms returns 4 (0x4)
T5144 11205:655.113 JLINK_ReadMemEx(0x40021024, 0x4 Bytes, Flags = 0x02000004)
T5144 11205:655.122   CPU_ReadMem(4 bytes @ 0x40021024)
T5144 11205:655.665   Data:  00 00 00 1C
T5144 11205:655.670 - 0.556ms returns 4 (0x4)
T5144 11205:655.675 JLINK_ReadMemEx(0x40021024, 0x4 Bytes, Flags = 0x02000004)
T5144 11205:655.679   CPU_ReadMem(4 bytes @ 0x40021024)
T5144 11205:656.325   Data:  00 00 00 1C
T5144 11205:656.352 - 0.677ms returns 4 (0x4)
T5144 11205:659.785 JLINK_ReadMemEx(0xE000E004, 0x4 Bytes, Flags = 0x02000004)
T5144 11205:659.797   CPU_ReadMem(4 bytes @ 0xE000E004)
T5144 11205:660.446   Data:  02 00 00 00
T5144 11205:660.454 - 0.668ms returns 4 (0x4)
T5144 11205:660.459 JLINK_ReadMemEx(0xE000E004, 0x4 Bytes, Flags = 0x02000004)
T5144 11205:660.463   CPU_ReadMem(4 bytes @ 0xE000E004)
T5144 11205:661.094   Data:  02 00 00 00
T5144 11205:661.098 - 0.639ms returns 4 (0x4)
T5144 11205:661.102 JLINK_ReadMemEx(0xE000E100, 0x4 Bytes, Flags = 0x02000004)
T5144 11205:661.105   CPU_ReadMem(4 bytes @ 0xE000E100)
T5144 11205:661.701   Data:  00 00 00 00
T5144 11205:661.711 - 0.608ms returns 4 (0x4)
T5144 11205:661.717 JLINK_ReadMemEx(0xE000E100, 0x4 Bytes, Flags = 0x02000004)
T5144 11205:661.734   CPU_ReadMem(4 bytes @ 0xE000E100)
T5144 11205:662.333   Data:  00 00 00 00
T5144 11205:662.337 - 0.620ms returns 4 (0x4)
T5144 11205:662.342 JLINK_ReadMemEx(0xE000E104, 0x4 Bytes, Flags = 0x02000004)
T5144 11205:662.347   CPU_ReadMem(4 bytes @ 0xE000E104)
T5144 11205:662.901   Data:  00 00 00 00
T5144 11205:662.906 - 0.563ms returns 4 (0x4)
T5144 11205:662.911 JLINK_ReadMemEx(0xE000E104, 0x4 Bytes, Flags = 0x02000004)
T5144 11205:662.943   CPU_ReadMem(4 bytes @ 0xE000E104)
T5144 11205:663.518   Data:  00 00 00 00
T5144 11205:663.529 - 0.617ms returns 4 (0x4)
T5144 11205:663.539 JLINK_ReadMemEx(0xE000E180, 0x4 Bytes, Flags = 0x02000004)
T5144 11205:663.545   CPU_ReadMem(4 bytes @ 0xE000E180)
T5144 11205:664.104   Data:  00 00 00 00
T5144 11205:664.108 - 0.569ms returns 4 (0x4)
T5144 11205:664.113 JLINK_ReadMemEx(0xE000E180, 0x4 Bytes, Flags = 0x02000004)
T5144 11205:664.117   CPU_ReadMem(4 bytes @ 0xE000E180)
T5144 11205:664.635   Data:  00 00 00 00
T5144 11205:664.642 - 0.528ms returns 4 (0x4)
T5144 11205:664.648 JLINK_ReadMemEx(0xE000E184, 0x4 Bytes, Flags = 0x02000004)
T5144 11205:664.651   CPU_ReadMem(4 bytes @ 0xE000E184)
T5144 11205:665.335   Data:  00 00 00 00
T5144 11205:665.339 - 0.691ms returns 4 (0x4)
T5144 11205:665.344 JLINK_ReadMemEx(0xE000E184, 0x4 Bytes, Flags = 0x02000004)
T5144 11205:665.347   CPU_ReadMem(4 bytes @ 0xE000E184)
T5144 11205:665.883   Data:  00 00 00 00
T5144 11205:665.887 - 0.543ms returns 4 (0x4)
T5144 11205:665.892 JLINK_ReadMemEx(0xE000E200, 0x4 Bytes, Flags = 0x02000004)
T5144 11205:665.895   CPU_ReadMem(4 bytes @ 0xE000E200)
T5144 11205:666.434   Data:  00 00 00 00
T5144 11205:666.438 - 0.546ms returns 4 (0x4)
T5144 11205:666.443 JLINK_ReadMemEx(0xE000E200, 0x4 Bytes, Flags = 0x02000004)
T5144 11205:666.446   CPU_ReadMem(4 bytes @ 0xE000E200)
T5144 11205:666.966   Data:  00 00 00 00
T5144 11205:666.971 - 0.527ms returns 4 (0x4)
T5144 11205:666.975 JLINK_ReadMemEx(0xE000E204, 0x4 Bytes, Flags = 0x02000004)
T5144 11205:666.978   CPU_ReadMem(4 bytes @ 0xE000E204)
T5144 11205:667.584   Data:  00 00 00 00
T5144 11205:667.588 - 0.613ms returns 4 (0x4)
T5144 11205:667.593 JLINK_ReadMemEx(0xE000E204, 0x4 Bytes, Flags = 0x02000004)
T5144 11205:667.597   CPU_ReadMem(4 bytes @ 0xE000E204)
T5144 11205:668.147   Data:  00 00 00 00
T5144 11205:668.151 - 0.557ms returns 4 (0x4)
T5144 11205:668.157 JLINK_ReadMemEx(0xE000E280, 0x4 Bytes, Flags = 0x02000004)
T5144 11205:668.160   CPU_ReadMem(4 bytes @ 0xE000E280)
T5144 11205:668.685   Data:  00 00 00 00
T5144 11205:668.689 - 0.532ms returns 4 (0x4)
T5144 11205:668.695 JLINK_ReadMemEx(0xE000E280, 0x4 Bytes, Flags = 0x02000004)
T5144 11205:668.698   CPU_ReadMem(4 bytes @ 0xE000E280)
T5144 11205:669.264   Data:  00 00 00 00
T5144 11205:669.268 - 0.573ms returns 4 (0x4)
T5144 11205:669.274 JLINK_ReadMemEx(0xE000E284, 0x4 Bytes, Flags = 0x02000004)
T5144 11205:669.277   CPU_ReadMem(4 bytes @ 0xE000E284)
T5144 11205:669.872   Data:  00 00 00 00
T5144 11205:669.895 - 0.620ms returns 4 (0x4)
T5144 11205:669.901 JLINK_ReadMemEx(0xE000E284, 0x4 Bytes, Flags = 0x02000004)
T5144 11205:669.904   CPU_ReadMem(4 bytes @ 0xE000E284)
T5144 11205:670.467   Data:  00 00 00 00
T5144 11205:670.472 - 0.570ms returns 4 (0x4)
T5144 11205:670.476 JLINK_ReadMemEx(0xE000E300, 0x4 Bytes, Flags = 0x02000004)
T5144 11205:670.479   CPU_ReadMem(4 bytes @ 0xE000E300)
T5144 11205:671.066   Data:  00 00 00 00
T5144 11205:671.070 - 0.593ms returns 4 (0x4)
T5144 11205:671.075 JLINK_ReadMemEx(0xE000E300, 0x4 Bytes, Flags = 0x02000004)
T5144 11205:671.078   CPU_ReadMem(4 bytes @ 0xE000E300)
T5144 11205:671.625   Data:  00 00 00 00
T5144 11205:671.629 - 0.553ms returns 4 (0x4)
T5144 11205:671.635 JLINK_ReadMemEx(0xE000E304, 0x4 Bytes, Flags = 0x02000004)
T5144 11205:671.638   CPU_ReadMem(4 bytes @ 0xE000E304)
T5144 11205:672.364   Data:  00 00 00 00
T5144 11205:672.368 - 0.733ms returns 4 (0x4)
T5144 11205:672.372 JLINK_ReadMemEx(0xE000E304, 0x4 Bytes, Flags = 0x02000004)
T5144 11205:672.375   CPU_ReadMem(4 bytes @ 0xE000E304)
T5144 11205:672.913   Data:  00 00 00 00
T5144 11205:672.948 - 0.574ms returns 4 (0x4)
T5144 11205:672.958 JLINK_ReadMemEx(0xE000E400, 0x38 Bytes, Flags = 0x02000004)
T5144 11205:672.961   CPU_ReadMem(56 bytes @ 0xE000E400)
T5144 11205:673.928   Data:  00 00 00 00 00 00 00 00 00 00 00 00 00 00 00 00 ...
T5144 11205:673.989 - 1.031ms returns 56 (0x38)
T5144 11205:673.995 JLINK_ReadMemEx(0xE000E400, 0x4 Bytes, Flags = 0x02000004)
T5144 11205:673.998   CPU_ReadMem(4 bytes @ 0xE000E400)
T5144 11205:674.552   Data:  00 00 00 00
T5144 11205:674.586 - 0.591ms returns 4 (0x4)
T5144 11205:674.592 JLINK_ReadMemEx(0xE000E404, 0x4 Bytes, Flags = 0x02000004)
T5144 11205:674.595   CPU_ReadMem(4 bytes @ 0xE000E404)
T5144 11205:675.145   Data:  00 00 00 00
T5144 11205:675.150 - 0.557ms returns 4 (0x4)
T5144 11205:675.154 JLINK_ReadMemEx(0xE000E408, 0x4 Bytes, Flags = 0x02000004)
T5144 11205:675.158   CPU_ReadMem(4 bytes @ 0xE000E408)
T5144 11205:675.754   Data:  00 00 00 00
T5144 11205:675.758 - 0.604ms returns 4 (0x4)
T5144 11205:675.763 JLINK_ReadMemEx(0xE000E40C, 0x4 Bytes, Flags = 0x02000004)
T5144 11205:675.767   CPU_ReadMem(4 bytes @ 0xE000E40C)
T5144 11205:676.461   Data:  00 00 00 00
T5144 11205:676.466 - 0.702ms returns 4 (0x4)
T5144 11205:676.471 JLINK_ReadMemEx(0xE000E410, 0x4 Bytes, Flags = 0x02000004)
T5144 11205:676.475   CPU_ReadMem(4 bytes @ 0xE000E410)
T5144 11205:677.070   Data:  00 00 00 00
T5144 11205:677.075 - 0.603ms returns 4 (0x4)
T5144 11205:677.080 JLINK_ReadMemEx(0xE000E414, 0x4 Bytes, Flags = 0x02000004)
T5144 11205:677.083   CPU_ReadMem(4 bytes @ 0xE000E414)
T5144 11205:677.668   Data:  00 00 00 00
T5144 11205:677.674 - 0.593ms returns 4 (0x4)
T5144 11205:677.679 JLINK_ReadMemEx(0xE000E418, 0x4 Bytes, Flags = 0x02000004)
T5144 11205:677.683   CPU_ReadMem(4 bytes @ 0xE000E418)
T5144 11205:678.233   Data:  00 00 00 00
T5144 11205:678.238 - 0.558ms returns 4 (0x4)
T5144 11205:678.243 JLINK_ReadMemEx(0xE000E41C, 0x4 Bytes, Flags = 0x02000004)
T5144 11205:678.247   CPU_ReadMem(4 bytes @ 0xE000E41C)
T5144 11205:678.812   Data:  00 00 00 00
T5144 11205:678.817 - 0.574ms returns 4 (0x4)
T5144 11205:678.824 JLINK_ReadMemEx(0xE000E420, 0x4 Bytes, Flags = 0x02000004)
T5144 11205:678.828   CPU_ReadMem(4 bytes @ 0xE000E420)
T5144 11205:679.408   Data:  00 00 00 00
T5144 11205:679.414 - 0.589ms returns 4 (0x4)
T5144 11205:679.420 JLINK_ReadMemEx(0xE000E424, 0x4 Bytes, Flags = 0x02000004)
T5144 11205:679.424   CPU_ReadMem(4 bytes @ 0xE000E424)
T5144 11205:679.959   Data:  00 00 00 00
T5144 11205:679.965 - 0.545ms returns 4 (0x4)
T5144 11205:679.972 JLINK_ReadMemEx(0xE000E428, 0x4 Bytes, Flags = 0x02000004)
T5144 11205:679.976   CPU_ReadMem(4 bytes @ 0xE000E428)
T5144 11205:680.537   Data:  00 00 00 00
T5144 11205:680.548 - 0.576ms returns 4 (0x4)
T5144 11205:680.554 JLINK_ReadMemEx(0xE000E42C, 0x4 Bytes, Flags = 0x02000004)
T5144 11205:680.560   CPU_ReadMem(4 bytes @ 0xE000E42C)
T5144 11205:681.151   Data:  00 00 00 00
T5144 11205:681.157 - 0.602ms returns 4 (0x4)
T5144 11205:681.167 JLINK_ReadMemEx(0xE000E430, 0x4 Bytes, Flags = 0x02000004)
T5144 11205:681.172   CPU_ReadMem(4 bytes @ 0xE000E430)
T5144 11205:681.755   Data:  00 00 00 00
T5144 11205:681.761 - 0.593ms returns 4 (0x4)
T5144 11205:681.768 JLINK_ReadMemEx(0xE000E434, 0x4 Bytes, Flags = 0x02000004)
T5144 11205:681.773   CPU_ReadMem(4 bytes @ 0xE000E434)
T5144 11205:682.296   Data:  00 00 00 00
T5144 11205:682.302 - 0.534ms returns 4 (0x4)
T5144 11205:682.311 JLINK_ReadMemEx(0xE000E438, 0x4 Bytes, Flags = 0x02000004)
T5144 11205:682.316   CPU_ReadMem(4 bytes @ 0xE000E438)
T5144 11205:682.857   Data:  00 00 00 00
T5144 11205:682.863 - 0.552ms returns 4 (0x4)
T5144 11205:682.871 JLINK_ReadMemEx(0xE000E438, 0x4 Bytes, Flags = 0x02000004)
T5144 11205:682.876   CPU_ReadMem(4 bytes @ 0xE000E438)
T5144 11205:683.421   Data:  00 00 00 00
T5144 11205:683.427 - 0.556ms returns 4 (0x4)
T5144 11205:683.689 JLINK_ReadMemEx(0x40010C00, 0xC Bytes, Flags = 0x02000004)
T5144 11205:683.696   CPU_ReadMem(12 bytes @ 0x40010C00)
T5144 11205:684.280   Data:  44 44 44 44 44 44 44 44 00 00 00 00
T5144 11205:684.287 - 0.598ms returns 12 (0xC)
T5144 11205:684.294 JLINK_ReadMemEx(0x40010C00, 0x4 Bytes, Flags = 0x02000004)
T5144 11205:684.299   CPU_ReadMem(4 bytes @ 0x40010C00)
T5144 11205:684.883   Data:  44 44 44 44
T5144 11205:684.890 - 0.596ms returns 4 (0x4)
T5144 11205:684.896 JLINK_ReadMemEx(0x40010C04, 0x4 Bytes, Flags = 0x02000004)
T5144 11205:684.902   CPU_ReadMem(4 bytes @ 0x40010C04)
T5144 11205:685.508   Data:  44 44 44 44
T5144 11205:685.514 - 0.617ms returns 4 (0x4)
